T346C 013:841 SEGGER J-Link V5.00k Log File (0000ms, 1192ms total)
T346C 013:841 DLL Compiled: Jul 31 2015 15:48:52 (0000ms, 1192ms total)
T346C 013:841 Logging started @ 2025-06-23 16:21 (0000ms, 1192ms total)
T346C 013:841 JLINK_SetWarnOutHandler(...) (0000ms, 1192ms total)
T346C 013:841 JLINK_OpenEx(...)
Firmware: J-Link V9 compiled May  7 2021 16:26:12
Hardware: V9.40
S/N: 69403643
Feature(s): RDI, GDB, FlashDL, FlashBP, JFlashDevice "STM32F407VE" selected.  returns O.K. (0283ms, 1475ms total)
T346C 014:124 JLINK_GetEmuCaps()  returns 0xF9FF7BFF (0000ms, 1475ms total)
T346C 014:125 JLINK_TIF_GetAvailable(...) (0000ms, 1475ms total)
T346C 014:125 JLINK_SetErrorOutHandler(...) (0000ms, 1475ms total)
T346C 014:125 JLINK_ExecCommand("ProjectFile = "C:\E_Dev\Stm32Dev\STM32_MMW_LIGHT\MDK-ARM\JLinkSettings.ini"", ...)Device "STM32F407VE" selected.  returns 0x00 (0001ms, 1476ms total)
T346C 014:126 JLINK_ExecCommand("Device = STM32F407VETx", ...)Device "STM32F407VE" selected.  returns 0x00 (0000ms, 1476ms total)
T346C 014:126 JLINK_ExecCommand("DisableConnectionTimeout", ...)  returns 0x01 (0000ms, 1476ms total)
T346C 014:126 JLINK_GetHardwareVersion()  returns 0x16F30 (0000ms, 1476ms total)
T346C 014:126 JLINK_GetDLLVersion()  returns 50011 (0000ms, 1476ms total)
T346C 014:126 JLINK_GetFirmwareString(...) (0000ms, 1476ms total)
T346C 014:126 JLINK_GetDLLVersion()  returns 50011 (0000ms, 1476ms total)
T346C 014:126 JLINK_GetCompileDateTime() (0000ms, 1476ms total)
T346C 014:126 JLINK_GetFirmwareString(...) (0000ms, 1476ms total)
T346C 014:126 JLINK_GetHardwareVersion()  returns 0x16F30 (0000ms, 1476ms total)
T346C 014:126 JLINK_TIF_Select(JLINKARM_TIF_SWD)  returns 0x00 (0001ms, 1477ms total)
T346C 014:127 JLINK_SetSpeed(5000) (0001ms, 1478ms total)
T346C 014:128 JLINK_GetId() >0x108 TIF>Found SWD-DP with ID 0x2BA01477 >0x0D TIF> >0x28 TIF> >0x0D TIF> >0x28 TIF> >0x0D TIF> >0x21 TIF> >0x0D TIF> >0x28 TIF> >0x0D TIF> >0x28 TIF> >0x0D TIF> >0x28 TIF> >0x0D TIF> >0x21 TIF> >0x0D TIF> >0x21 TIF> >0x0D TIF> >0x28 TIF> >0x0D TIF> >0x21 TIF> >0x0D TIF> >0x21 TIF> >0x0D TIF> >0x28 TIF> >0x0D TIF> >0x21 TIF> >0x0D TIF> >0x21 TIF> >0x108 TIF>Found SWD-DP with ID 0x2BA01477 >0x0D TIF> >0x21 TIF> >0x0D TIF> >0x28 TIF> >0x0D TIF> >0x28 TIF> >0x0D TIF> >0x21 TIF>
 >0x0D TIF> >0x28 TIF> >0x0D TIF> >0x21 TIF> >0x0D TIF> >0x21 TIF> >0x0D TIF> >0x21 TIF> >0x0D TIF> >0x21 TIF> >0x0D TIF> >0x28 TIF> >0x0D TIF> >0x28 TIF> >0x0D TIF> >0x21 TIF> >0x0D TIF> >0x28 TIF> >0x0D TIF> >0x28 TIF> >0x0D TIF> >0x28 TIF> >0x0D TIF> >0x21 TIF> >0x0D TIF> >0x21 TIF> >0x0D TIF> >0x28 TIF> >0x0D TIF> >0x21 TIF> >0x0D TIF> >0x21 TIF>Found Cortex-M4 r0p1, Little endian. -- CPU_WriteMem(4 bytes @ 0xE0002000) -- CPU_ReadMem(4 bytes @ 0xE000EDF0) -- CPU_ReadMem(4 bytes @ 0xE0002000)
FPUnit: 6 code (BP) slots and 2 literal slots -- CPU_ReadMem(4 bytes @ 0xE000EDFC) -- CPU_ReadMem(4 bytes @ 0xE0001000) -- CPU_WriteMem(4 bytes @ 0xE0001000) -- CPU_ReadMem(4 bytes @ 0xE000ED88) -- CPU_WriteMem(4 bytes @ 0xE000ED88) -- CPU_ReadMem(4 bytes @ 0xE000ED88) -- CPU_WriteMem(4 bytes @ 0xE000ED88)CoreSight components:ROMTbl 0 @ E00FF000 -- CPU_ReadMem(16 bytes @ 0xE00FF000) -- CPU_ReadMem(16 bytes @ 0xE000EFF0) -- CPU_ReadMem(16 bytes @ 0xE000EFE0)
ROMTbl 0 [0]: FFF0F000, CID: B105E00D, PID: 000BB00C SCS -- CPU_ReadMem(16 bytes @ 0xE0001FF0) -- CPU_ReadMem(16 bytes @ 0xE0001FE0)ROMTbl 0 [1]: FFF02000, CID: B105E00D, PID: 003BB002 DWT -- CPU_ReadMem(16 bytes @ 0xE0002FF0) -- CPU_ReadMem(16 bytes @ 0xE0002FE0)ROMTbl 0 [2]: FFF03000, CID: B105E00D, PID: 002BB003 FPB -- CPU_ReadMem(16 bytes @ 0xE0000FF0) -- CPU_ReadMem(16 bytes @ 0xE0000FE0)ROMTbl 0 [3]: FFF01000, CID: B105E00D, PID: 003BB001 ITM -- CPU_ReadMem(16 bytes @ 0xE00FF010)
 -- CPU_ReadMem(16 bytes @ 0xE0040FF0) -- CPU_ReadMem(16 bytes @ 0xE0040FE0)ROMTbl 0 [4]: FFF41000, CID: B105900D, PID: 000BB9A1 TPIU -- CPU_ReadMem(16 bytes @ 0xE0041FF0) -- CPU_ReadMem(16 bytes @ 0xE0041FE0)ROMTbl 0 [5]: FFF42000, CID: B105900D, PID: 000BB925 ETM >0x0D TIF> >0x21 TIF>  returns 0x2BA01477 (0055ms, 1533ms total)
T346C 014:183 JLINK_GetDLLVersion()  returns 50011 (0001ms, 1534ms total)
T346C 014:184 JLINK_CORE_GetFound()  returns 0xE0000FF (0000ms, 1534ms total)
T346C 014:184 JLINK_GetDebugInfo(0x100) -- Value=0xE00FF003  returns 0x00 (0000ms, 1534ms total)
T346C 014:184 JLINK_GetDebugInfo(0x100) -- Value=0xE00FF003  returns 0x00 (0000ms, 1534ms total)
T346C 014:184 JLINK_GetDebugInfo(0x101)  returns 0xFFFFFFFF (0000ms, 1534ms total)
T346C 014:184 JLINK_ReadMemEx(0xE0041FF0, 0x0010 Bytes, ..., AccessWidth = 33554436) -- CPU is running -- CPU_ReadMem(16 bytes @ 0xE0041FF0) - Data: 0D 00 00 00 90 00 00 00 05 00 00 00 B1 00 00 00  returns 0x10 (0001ms, 1535ms total)
T346C 014:185 JLINK_ReadMemEx(0xE0041FD0, 0x0020 Bytes, ..., AccessWidth = 33554436) -- CPU is running -- CPU_ReadMem(32 bytes @ 0xE0041FD0) - Data: 04 00 00 00 00 00 00 00 00 00 00 00 00 00 00 00 ...  returns 0x20 (0001ms, 1536ms total)
T346C 014:186 JLINK_GetDebugInfo(0x102)  returns 0xFFFFFFFF (0000ms, 1536ms total)
T346C 014:186 JLINK_GetDebugInfo(0x103)  returns 0xFFFFFFFF (0000ms, 1536ms total)
T346C 014:186 JLINK_ReadMemEx(0xE0040FF0, 0x0010 Bytes, ..., AccessWidth = 33554436) -- CPU is running -- CPU_ReadMem(16 bytes @ 0xE0040FF0) - Data: 0D 00 00 00 90 00 00 00 05 00 00 00 B1 00 00 00  returns 0x10 (0001ms, 1537ms total)
T346C 014:187 JLINK_GetDebugInfo(0x104)  returns 0xFFFFFFFF (0000ms, 1537ms total)
T346C 014:187 JLINK_GetDebugInfo(0x105)  returns 0xFFFFFFFF (0000ms, 1537ms total)
T346C 014:187 JLINK_GetDebugInfo(0x106)  returns 0xFFFFFFFF (0000ms, 1537ms total)
T346C 014:187 JLINK_GetDebugInfo(0x107)  returns 0xFFFFFFFF (0000ms, 1537ms total)
T346C 014:187 JLINK_GetDebugInfo(0x10C)  returns 0xFFFFFFFF (0000ms, 1537ms total)
T346C 014:187 JLINK_GetDebugInfo(0x01)  returns 0xFFFFFFFF (0000ms, 1537ms total)
T346C 014:187 JLINK_GetDeviceFamily()  returns 14 (0000ms, 1537ms total)
T346C 014:187 JLINK_ReadMemU32(0xE000ED00, 0x0001 Items, ...) -- CPU is running -- CPU_ReadMem(4 bytes @ 0xE000ED00) - Data: 41 C2 0F 41  returns 0x01 (0001ms, 1538ms total)
T346C 014:188 JLINK_GetDebugInfo(0x10F)  returns 0xFFFFFFFF (0000ms, 1538ms total)
T346C 014:188 JLINK_SetResetType(JLINKARM_RESET_TYPE_NORMAL)  returns JLINKARM_RESET_TYPE_NORMAL (0000ms, 1538ms total)
T346C 014:188 JLINK_Reset() -- CPU is running -- CPU_WriteMem(4 bytes @ 0xE000EDF0) -- CPU is running -- CPU_WriteMem(4 bytes @ 0xE000EDFC) >0x35 TIF> -- CPU is running -- CPU_WriteMem(4 bytes @ 0xE000ED0C) -- CPU is running -- CPU_ReadMem(4 bytes @ 0xE000EDF0) -- CPU is running -- CPU_ReadMem(4 bytes @ 0xE000EDF0) -- CPU is running -- CPU_WriteMem(4 bytes @ 0xE000EDF0) -- CPU is running -- CPU_WriteMem(4 bytes @ 0xE000EDFC) -- CPU is running -- CPU_ReadMem(4 bytes @ 0xE000EDF0)
 -- CPU_WriteMem(4 bytes @ 0xE0002000) -- CPU_ReadMem(4 bytes @ 0xE000EDFC) -- CPU_ReadMem(4 bytes @ 0xE0001000) (0028ms, 1566ms total)
T346C 014:216 JLINK_ReadReg(R15 (PC))  returns 0x0800025C (0000ms, 1566ms total)
T346C 014:216 JLINK_ReadReg(XPSR)  returns 0x01000000 (0000ms, 1566ms total)
T346C 014:216 JLINK_Halt()  returns 0x00 (0000ms, 1566ms total)
T346C 014:216 JLINK_ReadMemU32(0xE000EDF0, 0x0001 Items, ...) -- CPU_ReadMem(4 bytes @ 0xE000EDF0) - Data: 03 00 03 00  returns 0x01 (0001ms, 1567ms total)
T346C 014:217 JLINK_WriteU32(0xE000EDF0, 0xA05F0003) -- CPU_WriteMem(4 bytes @ 0xE000EDF0)  returns 0x00 (0001ms, 1568ms total)
T346C 014:218 JLINK_WriteU32(0xE000EDFC, 0x01000000) -- CPU_WriteMem(4 bytes @ 0xE000EDFC)  returns 0x00 (0001ms, 1569ms total)
T346C 014:219 JLINK_GetHWStatus(...)  returns 0x00 (0000ms, 1569ms total)
T346C 014:219 JLINK_GetNumBPUnits(Type = 0xFFFFFF00)  returns 0x06 (0000ms, 1569ms total)
T346C 014:219 JLINK_GetNumBPUnits(Type = 0xF0)  returns 0x2000 (0000ms, 1569ms total)
T346C 014:219 JLINK_GetNumWPUnits()  returns 0x04 (0000ms, 1569ms total)
T346C 014:219 JLINK_GetSpeed()  returns 0xFA0 (0000ms, 1569ms total)
T346C 014:220 JLINK_ReadMemU32(0xE000E004, 0x0001 Items, ...) -- CPU_ReadMem(4 bytes @ 0xE000E004) - Data: 02 00 00 00  returns 0x01 (0000ms, 1569ms total)
T346C 014:220 JLINK_ReadMemU32(0xE000E004, 0x0001 Items, ...) -- CPU_ReadMem(4 bytes @ 0xE000E004) - Data: 02 00 00 00  returns 0x01 (0001ms, 1570ms total)
T346C 014:221 JLINK_WriteMemEx(0xE0001000, 0x001C Bytes, ..., AccessWidth = 33554436) - Data: 01 00 00 00 00 00 00 00 00 00 00 00 00 00 00 00 ... -- CPU_WriteMem(28 bytes @ 0xE0001000)  returns 0x1C (0002ms, 1572ms total)
T346C 014:223 JLINK_ReadReg(R15 (PC))  returns 0x0800025C (0000ms, 1572ms total)
T346C 014:223 JLINK_ReadReg(XPSR)  returns 0x01000000 (0000ms, 1572ms total)
T346C 014:229 JLINK_ReadMemEx(0xE0001004, 0x0004 Bytes, ..., AccessWidth = 33554432)Mis-aligned memory read: Address: 0xE0001004, NumBytes: 4, Alignment: 2 (Halfword-aligned)
  ***** Mis-aligned memory read: Address: 0xE0001004, NumBytes: 4, Alignment: 2 (Halfword-aligned) -- CPU_ReadMem(4 bytes @ 0xE0001004) - Data: 00 00 00 00  returns 0x04 (0001ms, 1573ms total)
T346C 014:327 JLINK_SetResetType(JLINKARM_RESET_TYPE_NORMAL)  returns JLINKARM_RESET_TYPE_NORMAL (0000ms, 1573ms total)
T346C 014:327 JLINK_Reset() -- CPU_WriteMem(4 bytes @ 0xE000EDF0) -- CPU_WriteMem(4 bytes @ 0xE000EDFC) >0x35 TIF> -- CPU_WriteMem(4 bytes @ 0xE000ED0C) -- CPU_ReadMem(4 bytes @ 0xE000EDF0) -- CPU_ReadMem(4 bytes @ 0xE000EDF0) -- CPU_WriteMem(4 bytes @ 0xE000EDF0) -- CPU_WriteMem(4 bytes @ 0xE000EDFC) -- CPU is running -- CPU_ReadMem(4 bytes @ 0xE000EDF0) -- CPU_WriteMem(4 bytes @ 0xE0002000) -- CPU_ReadMem(4 bytes @ 0xE000EDFC) -- CPU_ReadMem(4 bytes @ 0xE0001000) (0028ms, 1601ms total)
T346C 014:355 JLINK_ReadReg(R15 (PC))  returns 0x0800025C (0000ms, 1601ms total)
T346C 014:355 JLINK_ReadReg(XPSR)  returns 0x01000000 (0000ms, 1601ms total)
T346C 014:517 JLINK_ReadMemEx(0x0800025C, 0x003C Bytes, ..., AccessWidth = 33554432)Mis-aligned memory read: Address: 0x0800025C, NumBytes: 60, Alignment: 2 (Halfword-aligned)
  ***** Mis-aligned memory read: Address: 0x0800025C, NumBytes: 60, Alignment: 2 (Halfword-aligned) -- CPU_ReadMem(128 bytes @ 0x08000240) -- Updating C cache (128 bytes @ 0x08000240) -- Read from C cache (60 bytes @ 0x0800025C) - Data: 06 48 80 47 06 48 00 47 FE E7 FE E7 FE E7 FE E7 ...  returns 0x3C (0003ms, 1604ms total)
T346C 014:520 JLINK_ReadMemEx(0x0800025C, 0x0002 Bytes, ..., AccessWidth = 33554432)Mis-aligned memory read: Address: 0x0800025C, NumBytes: 2, Alignment: 2 (Halfword-aligned)
  ***** Mis-aligned memory read: Address: 0x0800025C, NumBytes: 2, Alignment: 2 (Halfword-aligned) -- Read from C cache (2 bytes @ 0x0800025C) - Data: 06 48  returns 0x02 (0000ms, 1604ms total)
T346C 014:520 JLINK_ReadMemEx(0x0800025E, 0x0002 Bytes, ..., AccessWidth = 33554432)Mis-aligned memory read: Address: 0x0800025E, NumBytes: 2, Alignment: 2 (Halfword-aligned)
  ***** Mis-aligned memory read: Address: 0x0800025E, NumBytes: 2, Alignment: 2 (Halfword-aligned) -- Read from C cache (2 bytes @ 0x0800025E) - Data: 80 47  returns 0x02 (0000ms, 1604ms total)
T346C 014:520 JLINK_ReadMemEx(0x0800025E, 0x0002 Bytes, ..., AccessWidth = 33554432)Mis-aligned memory read: Address: 0x0800025E, NumBytes: 2, Alignment: 2 (Halfword-aligned)
  ***** Mis-aligned memory read: Address: 0x0800025E, NumBytes: 2, Alignment: 2 (Halfword-aligned) -- Read from C cache (2 bytes @ 0x0800025E) - Data: 80 47  returns 0x02 (0000ms, 1604ms total)
T346C 014:520 JLINK_ReadMemEx(0x08000260, 0x003C Bytes, ..., AccessWidth = 33554432)Mis-aligned memory read: Address: 0x08000260, NumBytes: 60, Alignment: 2 (Halfword-aligned)
  ***** Mis-aligned memory read: Address: 0x08000260, NumBytes: 60, Alignment: 2 (Halfword-aligned) -- Read from C cache (60 bytes @ 0x08000260) - Data: 06 48 00 47 FE E7 FE E7 FE E7 FE E7 FE E7 FE E7 ...  returns 0x3C (0000ms, 1604ms total)
T346C 014:520 JLINK_ReadMemEx(0x08000260, 0x0002 Bytes, ..., AccessWidth = 33554432)Mis-aligned memory read: Address: 0x08000260, NumBytes: 2, Alignment: 2 (Halfword-aligned)
  ***** Mis-aligned memory read: Address: 0x08000260, NumBytes: 2, Alignment: 2 (Halfword-aligned) -- Read from C cache (2 bytes @ 0x08000260) - Data: 06 48  returns 0x02 (0000ms, 1604ms total)
T346C 015:739 JLINK_ReadMemEx(0x08000260, 0x003C Bytes, ..., AccessWidth = 33554432)Mis-aligned memory read: Address: 0x08000260, NumBytes: 60, Alignment: 2 (Halfword-aligned)
  ***** Mis-aligned memory read: Address: 0x08000260, NumBytes: 60, Alignment: 2 (Halfword-aligned) -- Read from C cache (60 bytes @ 0x08000260) - Data: 06 48 00 47 FE E7 FE E7 FE E7 FE E7 FE E7 FE E7 ...  returns 0x3C (0000ms, 1604ms total)
T346C 015:739 JLINK_ReadMemEx(0x08000260, 0x0002 Bytes, ..., AccessWidth = 33554432)Mis-aligned memory read: Address: 0x08000260, NumBytes: 2, Alignment: 2 (Halfword-aligned)
  ***** Mis-aligned memory read: Address: 0x08000260, NumBytes: 2, Alignment: 2 (Halfword-aligned) -- Read from C cache (2 bytes @ 0x08000260) - Data: 06 48  returns 0x02 (0000ms, 1604ms total)
T346C 015:739 JLINK_ReadMemEx(0x08000262, 0x0002 Bytes, ..., AccessWidth = 33554432)Mis-aligned memory read: Address: 0x08000262, NumBytes: 2, Alignment: 2 (Halfword-aligned)
  ***** Mis-aligned memory read: Address: 0x08000262, NumBytes: 2, Alignment: 2 (Halfword-aligned) -- Read from C cache (2 bytes @ 0x08000262) - Data: 00 47  returns 0x02 (0000ms, 1604ms total)
T346C 015:949 JLINK_ReadReg(R0)  returns 0x00000000 (0001ms, 1605ms total)
T346C 015:950 JLINK_ReadReg(R1)  returns 0x00000000 (0000ms, 1605ms total)
T346C 015:950 JLINK_ReadReg(R2)  returns 0x00000000 (0000ms, 1605ms total)
T346C 015:950 JLINK_ReadReg(R3)  returns 0x00000000 (0000ms, 1605ms total)
T346C 015:950 JLINK_ReadReg(R4)  returns 0x00000000 (0000ms, 1605ms total)
T346C 015:950 JLINK_ReadReg(R5)  returns 0x00000000 (0000ms, 1605ms total)
T346C 015:950 JLINK_ReadReg(R6)  returns 0x00000000 (0000ms, 1605ms total)
T346C 015:950 JLINK_ReadReg(R7)  returns 0x00000000 (0000ms, 1605ms total)
T346C 015:950 JLINK_ReadReg(R8)  returns 0x00000000 (0000ms, 1605ms total)
T346C 015:950 JLINK_ReadReg(R9)  returns 0x00000000 (0000ms, 1605ms total)
T346C 015:950 JLINK_ReadReg(R10)  returns 0x00000000 (0000ms, 1605ms total)
T346C 015:950 JLINK_ReadReg(R11)  returns 0x00000000 (0000ms, 1605ms total)
T346C 015:950 JLINK_ReadReg(R12)  returns 0x00000000 (0000ms, 1605ms total)
T346C 015:950 JLINK_ReadReg(R13 (SP))  returns 0x20004740 (0000ms, 1605ms total)
T346C 015:950 JLINK_ReadReg(R14)  returns 0xFFFFFFFF (0000ms, 1605ms total)
T346C 015:950 JLINK_ReadReg(R15 (PC))  returns 0x0800025C (0000ms, 1605ms total)
T346C 015:950 JLINK_ReadReg(XPSR)  returns 0x01000000 (0000ms, 1605ms total)
T346C 015:950 JLINK_ReadReg(MSP)  returns 0x20004740 (0000ms, 1605ms total)
T346C 015:950 JLINK_ReadReg(PSP)  returns 0x00000000 (0000ms, 1605ms total)
T346C 015:950 JLINK_ReadReg(CFBP)  returns 0x00000000 (0000ms, 1605ms total)
T346C 015:950 JLINK_ReadReg(FPSCR)  returns 0x00000000 (0013ms, 1618ms total)
T346C 015:963 JLINK_ReadReg(FPS0)  returns 0x00000000 (0000ms, 1618ms total)
T346C 015:963 JLINK_ReadReg(FPS1)  returns 0x00000000 (0000ms, 1618ms total)
T346C 015:963 JLINK_ReadReg(FPS2)  returns 0x00000000 (0000ms, 1618ms total)
T346C 015:963 JLINK_ReadReg(FPS3)  returns 0x00000000 (0000ms, 1618ms total)
T346C 015:963 JLINK_ReadReg(FPS4)  returns 0x00000000 (0000ms, 1618ms total)
T346C 015:963 JLINK_ReadReg(FPS5)  returns 0x00000000 (0000ms, 1618ms total)
T346C 015:963 JLINK_ReadReg(FPS6)  returns 0x00000000 (0000ms, 1618ms total)
T346C 015:963 JLINK_ReadReg(FPS7)  returns 0x00000000 (0000ms, 1618ms total)
T346C 015:963 JLINK_ReadReg(FPS8)  returns 0x00000000 (0000ms, 1618ms total)
T346C 015:963 JLINK_ReadReg(FPS9)  returns 0x00000000 (0000ms, 1618ms total)
T346C 015:963 JLINK_ReadReg(FPS10)  returns 0x00000000 (0000ms, 1618ms total)
T346C 015:963 JLINK_ReadReg(FPS11)  returns 0x00000000 (0000ms, 1618ms total)
T346C 015:963 JLINK_ReadReg(FPS12)  returns 0x00000000 (0000ms, 1618ms total)
T346C 015:963 JLINK_ReadReg(FPS13)  returns 0x00000000 (0000ms, 1618ms total)
T346C 015:963 JLINK_ReadReg(FPS14)  returns 0x00000000 (0000ms, 1618ms total)
T346C 015:963 JLINK_ReadReg(FPS15)  returns 0x00000000 (0000ms, 1618ms total)
T346C 015:963 JLINK_ReadReg(FPS16)  returns 0x00000000 (0000ms, 1618ms total)
T346C 015:963 JLINK_ReadReg(FPS17)  returns 0x00000000 (0001ms, 1619ms total)
T346C 015:964 JLINK_ReadReg(FPS18)  returns 0x00000000 (0000ms, 1619ms total)
T346C 015:964 JLINK_ReadReg(FPS19)  returns 0x00000000 (0000ms, 1619ms total)
T346C 015:964 JLINK_ReadReg(FPS20)  returns 0x00000000 (0000ms, 1619ms total)
T346C 015:964 JLINK_ReadReg(FPS21)  returns 0x00000000 (0000ms, 1619ms total)
T346C 015:964 JLINK_ReadReg(FPS22)  returns 0x00000000 (0000ms, 1619ms total)
T346C 015:964 JLINK_ReadReg(FPS23)  returns 0x00000000 (0000ms, 1619ms total)
T346C 015:964 JLINK_ReadReg(FPS24)  returns 0x00000000 (0000ms, 1619ms total)
T346C 015:964 JLINK_ReadReg(FPS25)  returns 0x00000000 (0000ms, 1619ms total)
T346C 015:964 JLINK_ReadReg(FPS26)  returns 0x00000000 (0000ms, 1619ms total)
T346C 015:964 JLINK_ReadReg(FPS27)  returns 0x00000000 (0000ms, 1619ms total)
T346C 015:964 JLINK_ReadReg(FPS28)  returns 0x00000000 (0000ms, 1619ms total)
T346C 015:964 JLINK_ReadReg(FPS29)  returns 0x00000000 (0000ms, 1619ms total)
T346C 015:964 JLINK_ReadReg(FPS30)  returns 0x00000000 (0000ms, 1619ms total)
T346C 015:964 JLINK_ReadReg(FPS31)  returns 0x00000000 (0000ms, 1619ms total)
T5FC4 016:011 JLINK_ReadMemEx(0x0800025C, 0x0002 Bytes, ..., AccessWidth = 33554432)Mis-aligned memory read: Address: 0x0800025C, NumBytes: 2, Alignment: 2 (Halfword-aligned)
  ***** Mis-aligned memory read: Address: 0x0800025C, NumBytes: 2, Alignment: 2 (Halfword-aligned) -- Read from C cache (2 bytes @ 0x0800025C) - Data: 06 48  returns 0x02 (0000ms, 1619ms total)
T5FC4 016:011 JLINK_SetBPEx(Addr = 0x080051B8, Type = 0xFFFFFFF2)  returns 0x00000001 (0000ms, 1619ms total)
T5FC4 016:011 JLINK_SetBPEx(Addr = 0x080035A0, Type = 0xFFFFFFF2)  returns 0x00000002 (0000ms, 1619ms total)
T5FC4 016:011 JLINK_Go() -- CPU_WriteMem(4 bytes @ 0xE0002000) -- CPU_WriteMem(4 bytes @ 0xE0002000) -- CPU_ReadMem(4 bytes @ 0xE0001000) -- CPU_WriteMem(4 bytes @ 0xE0002008) -- CPU_WriteMem(4 bytes @ 0xE000200C) -- CPU_WriteMem(4 bytes @ 0xE0002010) -- CPU_WriteMem(4 bytes @ 0xE0002014) -- CPU_WriteMem(4 bytes @ 0xE0002018) -- CPU_WriteMem(4 bytes @ 0xE000201C) -- CPU_WriteMem(4 bytes @ 0xE0001004) (0009ms, 1628ms total)
T5FC4 016:120 JLINK_IsHalted()  returns TRUE (0008ms, 1636ms total)
T5FC4 016:128 JLINK_Halt()  returns 0x00 (0000ms, 1628ms total)
T5FC4 016:128 JLINK_IsHalted()  returns TRUE (0000ms, 1628ms total)
T5FC4 016:128 JLINK_IsHalted()  returns TRUE (0000ms, 1628ms total)
T5FC4 016:128 JLINK_IsHalted()  returns TRUE (0000ms, 1628ms total)
T5FC4 016:128 JLINK_ReadReg(R15 (PC))  returns 0x080051B8 (0000ms, 1628ms total)
T5FC4 016:128 JLINK_ReadReg(XPSR)  returns 0x61000000 (0000ms, 1628ms total)
T5FC4 016:128 JLINK_ClrBPEx(BPHandle = 0x00000001)  returns 0x00 (0000ms, 1628ms total)
T5FC4 016:128 JLINK_ClrBPEx(BPHandle = 0x00000002)  returns 0x00 (0000ms, 1628ms total)
T5FC4 016:128 JLINK_ReadMemU32(0xE000ED30, 0x0001 Items, ...) -- CPU_ReadMem(4 bytes @ 0xE000ED30) - Data: 02 00 00 00  returns 0x01 (0001ms, 1629ms total)
T5FC4 016:129 JLINK_ReadMemU32(0xE0001028, 0x0001 Items, ...) -- CPU_ReadMem(4 bytes @ 0xE0001028) - Data: 00 00 00 00  returns 0x01 (0001ms, 1630ms total)
T5FC4 016:130 JLINK_ReadMemU32(0xE0001038, 0x0001 Items, ...) -- CPU_ReadMem(4 bytes @ 0xE0001038) - Data: 00 02 00 00  returns 0x01 (0000ms, 1630ms total)
T5FC4 016:130 JLINK_ReadMemU32(0xE0001048, 0x0001 Items, ...) -- CPU_ReadMem(4 bytes @ 0xE0001048) - Data: 00 00 00 00  returns 0x01 (0001ms, 1631ms total)
T5FC4 016:131 JLINK_ReadMemU32(0xE0001058, 0x0001 Items, ...) -- CPU_ReadMem(4 bytes @ 0xE0001058) - Data: 00 00 00 00  returns 0x01 (0001ms, 1632ms total)
T5FC4 016:132 JLINK_ReadReg(R0)  returns 0x080051B9 (0000ms, 1632ms total)
T5FC4 016:132 JLINK_ReadReg(R1)  returns 0x20004740 (0000ms, 1632ms total)
T5FC4 016:132 JLINK_ReadReg(R2)  returns 0x00000000 (0000ms, 1632ms total)
T5FC4 016:132 JLINK_ReadReg(R3)  returns 0x08004FB1 (0000ms, 1632ms total)
T5FC4 016:132 JLINK_ReadReg(R4)  returns 0x080064D8 (0000ms, 1632ms total)
T5FC4 016:132 JLINK_ReadReg(R5)  returns 0x080064D8 (0000ms, 1632ms total)
T5FC4 016:132 JLINK_ReadReg(R6)  returns 0x00000000 (0000ms, 1632ms total)
T5FC4 016:132 JLINK_ReadReg(R7)  returns 0x00000000 (0000ms, 1632ms total)
T5FC4 016:132 JLINK_ReadReg(R8)  returns 0x00000000 (0000ms, 1632ms total)
T5FC4 016:132 JLINK_ReadReg(R9)  returns 0x00000000 (0000ms, 1632ms total)
T5FC4 016:132 JLINK_ReadReg(R10)  returns 0x00000000 (0000ms, 1632ms total)
T5FC4 016:132 JLINK_ReadReg(R11)  returns 0x00000000 (0000ms, 1632ms total)
T5FC4 016:132 JLINK_ReadReg(R12)  returns 0x00000000 (0000ms, 1632ms total)
T5FC4 016:132 JLINK_ReadReg(R13 (SP))  returns 0x20004740 (0000ms, 1632ms total)
T5FC4 016:132 JLINK_ReadReg(R14)  returns 0x0800089D (0000ms, 1632ms total)
T5FC4 016:132 JLINK_ReadReg(R15 (PC))  returns 0x080051B8 (0000ms, 1632ms total)
T5FC4 016:132 JLINK_ReadReg(XPSR)  returns 0x61000000 (0000ms, 1632ms total)
T5FC4 016:132 JLINK_ReadReg(MSP)  returns 0x20004740 (0000ms, 1632ms total)
T5FC4 016:132 JLINK_ReadReg(PSP)  returns 0x00000000 (0000ms, 1632ms total)
T5FC4 016:132 JLINK_ReadReg(CFBP)  returns 0x00000000 (0000ms, 1632ms total)
T5FC4 016:132 JLINK_ReadReg(FPSCR)  returns 0x00000000 (0014ms, 1646ms total)
T5FC4 016:146 JLINK_ReadReg(FPS0)  returns 0x00000000 (0000ms, 1646ms total)
T5FC4 016:146 JLINK_ReadReg(FPS1)  returns 0x00000000 (0000ms, 1646ms total)
T5FC4 016:146 JLINK_ReadReg(FPS2)  returns 0x00000000 (0000ms, 1646ms total)
T5FC4 016:146 JLINK_ReadReg(FPS3)  returns 0x00000000 (0000ms, 1646ms total)
T5FC4 016:146 JLINK_ReadReg(FPS4)  returns 0x00000000 (0000ms, 1646ms total)
T5FC4 016:146 JLINK_ReadReg(FPS5)  returns 0x00000000 (0000ms, 1646ms total)
T5FC4 016:146 JLINK_ReadReg(FPS6)  returns 0x00000000 (0000ms, 1646ms total)
T5FC4 016:146 JLINK_ReadReg(FPS7)  returns 0x00000000 (0000ms, 1646ms total)
T5FC4 016:146 JLINK_ReadReg(FPS8)  returns 0x00000000 (0000ms, 1646ms total)
T5FC4 016:146 JLINK_ReadReg(FPS9)  returns 0x00000000 (0000ms, 1646ms total)
T5FC4 016:146 JLINK_ReadReg(FPS10)  returns 0x00000000 (0000ms, 1646ms total)
T5FC4 016:146 JLINK_ReadReg(FPS11)  returns 0x00000000 (0000ms, 1646ms total)
T5FC4 016:146 JLINK_ReadReg(FPS12)  returns 0x00000000 (0000ms, 1646ms total)
T5FC4 016:146 JLINK_ReadReg(FPS13)  returns 0x00000000 (0000ms, 1646ms total)
T5FC4 016:146 JLINK_ReadReg(FPS14)  returns 0x00000000 (0000ms, 1646ms total)
T5FC4 016:146 JLINK_ReadReg(FPS15)  returns 0x00000000 (0000ms, 1646ms total)
T5FC4 016:146 JLINK_ReadReg(FPS16)  returns 0x00000000 (0000ms, 1646ms total)
T5FC4 016:146 JLINK_ReadReg(FPS17)  returns 0x00000000 (0000ms, 1646ms total)
T5FC4 016:146 JLINK_ReadReg(FPS18)  returns 0x00000000 (0000ms, 1646ms total)
T5FC4 016:146 JLINK_ReadReg(FPS19)  returns 0x00000000 (0000ms, 1646ms total)
T5FC4 016:146 JLINK_ReadReg(FPS20)  returns 0x00000000 (0000ms, 1646ms total)
T5FC4 016:146 JLINK_ReadReg(FPS21)  returns 0x00000000 (0000ms, 1646ms total)
T5FC4 016:146 JLINK_ReadReg(FPS22)  returns 0x00000000 (0000ms, 1646ms total)
T5FC4 016:146 JLINK_ReadReg(FPS23)  returns 0x00000000 (0000ms, 1646ms total)
T5FC4 016:146 JLINK_ReadReg(FPS24)  returns 0x00000000 (0000ms, 1646ms total)
T5FC4 016:146 JLINK_ReadReg(FPS25)  returns 0x00000000 (0000ms, 1646ms total)
T5FC4 016:146 JLINK_ReadReg(FPS26)  returns 0x00000000 (0000ms, 1646ms total)
T5FC4 016:146 JLINK_ReadReg(FPS27)  returns 0x00000000 (0000ms, 1646ms total)
T5FC4 016:146 JLINK_ReadReg(FPS28)  returns 0x00000000 (0000ms, 1646ms total)
T5FC4 016:146 JLINK_ReadReg(FPS29)  returns 0x00000000 (0000ms, 1646ms total)
T5FC4 016:146 JLINK_ReadReg(FPS30)  returns 0x00000000 (0000ms, 1646ms total)
T5FC4 016:146 JLINK_ReadReg(FPS31)  returns 0x00000000 (0000ms, 1646ms total)
T346C 016:146 JLINK_ReadMemEx(0x2000472C, 0x0011 Bytes, ..., AccessWidth = 33554432)Mis-aligned memory read: Address: 0x2000472C, NumBytes: 17, Alignment: 2 (Halfword-aligned)
  ***** Mis-aligned memory read: Address: 0x2000472C, NumBytes: 17, Alignment: 2 (Halfword-aligned) -- CPU_ReadMem(64 bytes @ 0x20004700) -- Updating C cache (64 bytes @ 0x20004700) -- Read from C cache (17 bytes @ 0x2000472C) - Data: 00 00 00 00 00 00 00 00 00 00 00 00 00 00 00 00 ...  returns 0x11 (0002ms, 1648ms total)
T346C 016:152 JLINK_ReadMemEx(0x2000472C, 0x0011 Bytes, ..., AccessWidth = 33554432)Mis-aligned memory read: Address: 0x2000472C, NumBytes: 17, Alignment: 2 (Halfword-aligned)
  ***** Mis-aligned memory read: Address: 0x2000472C, NumBytes: 17, Alignment: 2 (Halfword-aligned) -- Read from C cache (17 bytes @ 0x2000472C) - Data: 00 00 00 00 00 00 00 00 00 00 00 00 00 00 00 00 ...  returns 0x11 (0000ms, 1648ms total)
T346C 016:152 JLINK_ReadMemU32(0xE0001004, 0x0001 Items, ...) -- CPU_ReadMem(4 bytes @ 0xE0001004) - Data: 7E 6B 00 00  returns 0x01 (0001ms, 1649ms total)
T346C 016:155 JLINK_ReadMemEx(0x080050B8, 0x003C Bytes, ..., AccessWidth = 33554432)Mis-aligned memory read: Address: 0x080050B8, NumBytes: 60, Alignment: 2 (Halfword-aligned)
  ***** Mis-aligned memory read: Address: 0x080050B8, NumBytes: 60, Alignment: 2 (Halfword-aligned) -- CPU_ReadMem(128 bytes @ 0x08005080) -- Updating C cache (128 bytes @ 0x08005080) -- Read from C cache (60 bytes @ 0x080050B8) - Data: 26 44 04 E0 19 F8 01 0B 52 46 0D 99 90 47 64 1E ...  returns 0x3C (0004ms, 1653ms total)
T346C 016:159 JLINK_ReadMemEx(0x080050B8, 0x0002 Bytes, ..., AccessWidth = 33554432)Mis-aligned memory read: Address: 0x080050B8, NumBytes: 2, Alignment: 2 (Halfword-aligned)
  ***** Mis-aligned memory read: Address: 0x080050B8, NumBytes: 2, Alignment: 2 (Halfword-aligned) -- Read from C cache (2 bytes @ 0x080050B8) - Data: 26 44  returns 0x02 (0000ms, 1653ms total)
T346C 016:159 JLINK_ReadMemEx(0x080050BA, 0x0002 Bytes, ..., AccessWidth = 33554432)Mis-aligned memory read: Address: 0x080050BA, NumBytes: 2, Alignment: 2 (Halfword-aligned)
  ***** Mis-aligned memory read: Address: 0x080050BA, NumBytes: 2, Alignment: 2 (Halfword-aligned) -- Read from C cache (2 bytes @ 0x080050BA) - Data: 04 E0  returns 0x02 (0000ms, 1653ms total)
T346C 016:159 JLINK_ReadMemEx(0x080050BA, 0x0002 Bytes, ..., AccessWidth = 33554432)Mis-aligned memory read: Address: 0x080050BA, NumBytes: 2, Alignment: 2 (Halfword-aligned)
  ***** Mis-aligned memory read: Address: 0x080050BA, NumBytes: 2, Alignment: 2 (Halfword-aligned) -- Read from C cache (2 bytes @ 0x080050BA) - Data: 04 E0  returns 0x02 (0000ms, 1653ms total)
T346C 016:159 JLINK_ReadMemEx(0x080050BC, 0x003C Bytes, ..., AccessWidth = 33554432)Mis-aligned memory read: Address: 0x080050BC, NumBytes: 60, Alignment: 2 (Halfword-aligned)
  ***** Mis-aligned memory read: Address: 0x080050BC, NumBytes: 60, Alignment: 2 (Halfword-aligned) -- Read from C cache (60 bytes @ 0x080050BC) - Data: 19 F8 01 0B 52 46 0D 99 90 47 64 1E F8 D2 57 E0 ...  returns 0x3C (0000ms, 1653ms total)
T346C 016:159 JLINK_ReadMemEx(0x080050BC, 0x0002 Bytes, ..., AccessWidth = 33554432)Mis-aligned memory read: Address: 0x080050BC, NumBytes: 2, Alignment: 2 (Halfword-aligned)
  ***** Mis-aligned memory read: Address: 0x080050BC, NumBytes: 2, Alignment: 2 (Halfword-aligned) -- Read from C cache (2 bytes @ 0x080050BC) - Data: 19 F8  returns 0x02 (0000ms, 1653ms total)
T346C 016:159 JLINK_ReadMemEx(0x080050BC, 0x003C Bytes, ..., AccessWidth = 33554432)Mis-aligned memory read: Address: 0x080050BC, NumBytes: 60, Alignment: 2 (Halfword-aligned)
  ***** Mis-aligned memory read: Address: 0x080050BC, NumBytes: 60, Alignment: 2 (Halfword-aligned) -- Read from C cache (60 bytes @ 0x080050BC) - Data: 19 F8 01 0B 52 46 0D 99 90 47 64 1E F8 D2 57 E0 ...  returns 0x3C (0000ms, 1653ms total)
T346C 016:159 JLINK_ReadMemEx(0x080050BC, 0x0002 Bytes, ..., AccessWidth = 33554432)Mis-aligned memory read: Address: 0x080050BC, NumBytes: 2, Alignment: 2 (Halfword-aligned)
  ***** Mis-aligned memory read: Address: 0x080050BC, NumBytes: 2, Alignment: 2 (Halfword-aligned) -- Read from C cache (2 bytes @ 0x080050BC) - Data: 19 F8  returns 0x02 (0000ms, 1653ms total)
T346C 016:159 JLINK_ReadMemEx(0x080050BE, 0x0002 Bytes, ..., AccessWidth = 33554432)Mis-aligned memory read: Address: 0x080050BE, NumBytes: 2, Alignment: 2 (Halfword-aligned)
  ***** Mis-aligned memory read: Address: 0x080050BE, NumBytes: 2, Alignment: 2 (Halfword-aligned) -- Read from C cache (2 bytes @ 0x080050BE) - Data: 01 0B  returns 0x02 (0000ms, 1653ms total)
T346C 016:159 JLINK_ReadMemEx(0x080050C0, 0x003C Bytes, ..., AccessWidth = 33554432)Mis-aligned memory read: Address: 0x080050C0, NumBytes: 60, Alignment: 2 (Halfword-aligned)
  ***** Mis-aligned memory read: Address: 0x080050C0, NumBytes: 60, Alignment: 2 (Halfword-aligned) -- Read from C cache (60 bytes @ 0x080050C0) - Data: 52 46 0D 99 90 47 64 1E F8 D2 57 E0 01 CF 4F F0 ...  returns 0x3C (0000ms, 1653ms total)
T346C 016:159 JLINK_ReadMemEx(0x080050C0, 0x0002 Bytes, ..., AccessWidth = 33554432)Mis-aligned memory read: Address: 0x080050C0, NumBytes: 2, Alignment: 2 (Halfword-aligned)
  ***** Mis-aligned memory read: Address: 0x080050C0, NumBytes: 2, Alignment: 2 (Halfword-aligned) -- Read from C cache (2 bytes @ 0x080050C0) - Data: 52 46  returns 0x02 (0000ms, 1653ms total)
T346C 016:159 JLINK_ReadMemEx(0x080050C2, 0x0002 Bytes, ..., AccessWidth = 33554432)Mis-aligned memory read: Address: 0x080050C2, NumBytes: 2, Alignment: 2 (Halfword-aligned)
  ***** Mis-aligned memory read: Address: 0x080050C2, NumBytes: 2, Alignment: 2 (Halfword-aligned) -- Read from C cache (2 bytes @ 0x080050C2) - Data: 0D 99  returns 0x02 (0000ms, 1653ms total)
T346C 016:159 JLINK_ReadMemEx(0x080050C2, 0x0002 Bytes, ..., AccessWidth = 33554432)Mis-aligned memory read: Address: 0x080050C2, NumBytes: 2, Alignment: 2 (Halfword-aligned)
  ***** Mis-aligned memory read: Address: 0x080050C2, NumBytes: 2, Alignment: 2 (Halfword-aligned) -- Read from C cache (2 bytes @ 0x080050C2) - Data: 0D 99  returns 0x02 (0000ms, 1653ms total)
T346C 016:159 JLINK_ReadMemEx(0x080050C4, 0x003C Bytes, ..., AccessWidth = 33554432)Mis-aligned memory read: Address: 0x080050C4, NumBytes: 60, Alignment: 2 (Halfword-aligned)
  ***** Mis-aligned memory read: Address: 0x080050C4, NumBytes: 60, Alignment: 2 (Halfword-aligned) -- Read from C cache (60 bytes @ 0x080050C4) - Data: 90 47 64 1E F8 D2 57 E0 01 CF 4F F0 0A 0B 00 28 ...  returns 0x3C (0000ms, 1653ms total)
T346C 016:159 JLINK_ReadMemEx(0x080050C4, 0x0002 Bytes, ..., AccessWidth = 33554432)Mis-aligned memory read: Address: 0x080050C4, NumBytes: 2, Alignment: 2 (Halfword-aligned)
  ***** Mis-aligned memory read: Address: 0x080050C4, NumBytes: 2, Alignment: 2 (Halfword-aligned) -- Read from C cache (2 bytes @ 0x080050C4) - Data: 90 47  returns 0x02 (0000ms, 1653ms total)
T346C 016:159 JLINK_ReadMemEx(0x080050C4, 0x003C Bytes, ..., AccessWidth = 33554432)Mis-aligned memory read: Address: 0x080050C4, NumBytes: 60, Alignment: 2 (Halfword-aligned)
  ***** Mis-aligned memory read: Address: 0x080050C4, NumBytes: 60, Alignment: 2 (Halfword-aligned) -- Read from C cache (60 bytes @ 0x080050C4) - Data: 90 47 64 1E F8 D2 57 E0 01 CF 4F F0 0A 0B 00 28 ...  returns 0x3C (0000ms, 1653ms total)
T346C 016:159 JLINK_ReadMemEx(0x080050C4, 0x0002 Bytes, ..., AccessWidth = 33554432)Mis-aligned memory read: Address: 0x080050C4, NumBytes: 2, Alignment: 2 (Halfword-aligned)
  ***** Mis-aligned memory read: Address: 0x080050C4, NumBytes: 2, Alignment: 2 (Halfword-aligned) -- Read from C cache (2 bytes @ 0x080050C4) - Data: 90 47  returns 0x02 (0000ms, 1653ms total)
T346C 016:159 JLINK_ReadMemEx(0x080050C6, 0x0002 Bytes, ..., AccessWidth = 33554432)Mis-aligned memory read: Address: 0x080050C6, NumBytes: 2, Alignment: 2 (Halfword-aligned)
  ***** Mis-aligned memory read: Address: 0x080050C6, NumBytes: 2, Alignment: 2 (Halfword-aligned) -- Read from C cache (2 bytes @ 0x080050C6) - Data: 64 1E  returns 0x02 (0000ms, 1653ms total)
T346C 016:159 JLINK_ReadMemEx(0x080050C6, 0x0002 Bytes, ..., AccessWidth = 33554432)Mis-aligned memory read: Address: 0x080050C6, NumBytes: 2, Alignment: 2 (Halfword-aligned)
  ***** Mis-aligned memory read: Address: 0x080050C6, NumBytes: 2, Alignment: 2 (Halfword-aligned) -- Read from C cache (2 bytes @ 0x080050C6) - Data: 64 1E  returns 0x02 (0000ms, 1653ms total)
T346C 016:159 JLINK_ReadMemEx(0x080050C8, 0x003C Bytes, ..., AccessWidth = 33554432)Mis-aligned memory read: Address: 0x080050C8, NumBytes: 60, Alignment: 2 (Halfword-aligned)
  ***** Mis-aligned memory read: Address: 0x080050C8, NumBytes: 60, Alignment: 2 (Halfword-aligned) -- CPU_ReadMem(64 bytes @ 0x08005100) -- Updating C cache (64 bytes @ 0x08005100) -- Read from C cache (60 bytes @ 0x080050C8) - Data: F8 D2 57 E0 01 CF 4F F0 0A 0B 00 28 02 DA 40 42 ...  returns 0x3C (0002ms, 1655ms total)
T346C 016:161 JLINK_ReadMemEx(0x080050C8, 0x0002 Bytes, ..., AccessWidth = 33554432)Mis-aligned memory read: Address: 0x080050C8, NumBytes: 2, Alignment: 2 (Halfword-aligned)
  ***** Mis-aligned memory read: Address: 0x080050C8, NumBytes: 2, Alignment: 2 (Halfword-aligned) -- Read from C cache (2 bytes @ 0x080050C8) - Data: F8 D2  returns 0x02 (0000ms, 1655ms total)
T346C 016:161 JLINK_ReadMemEx(0x080050C8, 0x003C Bytes, ..., AccessWidth = 33554432)Mis-aligned memory read: Address: 0x080050C8, NumBytes: 60, Alignment: 2 (Halfword-aligned)
  ***** Mis-aligned memory read: Address: 0x080050C8, NumBytes: 60, Alignment: 2 (Halfword-aligned) -- Read from C cache (60 bytes @ 0x080050C8) - Data: F8 D2 57 E0 01 CF 4F F0 0A 0B 00 28 02 DA 40 42 ...  returns 0x3C (0000ms, 1655ms total)
T346C 016:161 JLINK_ReadMemEx(0x080050C8, 0x0002 Bytes, ..., AccessWidth = 33554432)Mis-aligned memory read: Address: 0x080050C8, NumBytes: 2, Alignment: 2 (Halfword-aligned)
  ***** Mis-aligned memory read: Address: 0x080050C8, NumBytes: 2, Alignment: 2 (Halfword-aligned) -- Read from C cache (2 bytes @ 0x080050C8) - Data: F8 D2  returns 0x02 (0000ms, 1655ms total)
T346C 016:161 JLINK_ReadMemEx(0x080050CA, 0x0002 Bytes, ..., AccessWidth = 33554432)Mis-aligned memory read: Address: 0x080050CA, NumBytes: 2, Alignment: 2 (Halfword-aligned)
  ***** Mis-aligned memory read: Address: 0x080050CA, NumBytes: 2, Alignment: 2 (Halfword-aligned) -- Read from C cache (2 bytes @ 0x080050CA) - Data: 57 E0  returns 0x02 (0000ms, 1655ms total)
T346C 016:161 JLINK_ReadMemEx(0x080050CA, 0x0002 Bytes, ..., AccessWidth = 33554432)Mis-aligned memory read: Address: 0x080050CA, NumBytes: 2, Alignment: 2 (Halfword-aligned)
  ***** Mis-aligned memory read: Address: 0x080050CA, NumBytes: 2, Alignment: 2 (Halfword-aligned) -- Read from C cache (2 bytes @ 0x080050CA) - Data: 57 E0  returns 0x02 (0000ms, 1655ms total)
T346C 016:161 JLINK_ReadMemEx(0x080050CC, 0x003C Bytes, ..., AccessWidth = 33554432)Mis-aligned memory read: Address: 0x080050CC, NumBytes: 60, Alignment: 2 (Halfword-aligned)
  ***** Mis-aligned memory read: Address: 0x080050CC, NumBytes: 60, Alignment: 2 (Halfword-aligned) -- Read from C cache (60 bytes @ 0x080050CC) - Data: 01 CF 4F F0 0A 0B 00 28 02 DA 40 42 2D 21 02 E0 ...  returns 0x3C (0000ms, 1655ms total)
T346C 016:161 JLINK_ReadMemEx(0x080050CC, 0x0002 Bytes, ..., AccessWidth = 33554432)Mis-aligned memory read: Address: 0x080050CC, NumBytes: 2, Alignment: 2 (Halfword-aligned)
  ***** Mis-aligned memory read: Address: 0x080050CC, NumBytes: 2, Alignment: 2 (Halfword-aligned) -- Read from C cache (2 bytes @ 0x080050CC) - Data: 01 CF  returns 0x02 (0000ms, 1655ms total)
T346C 016:161 JLINK_ReadMemEx(0x080050CC, 0x003C Bytes, ..., AccessWidth = 33554432)Mis-aligned memory read: Address: 0x080050CC, NumBytes: 60, Alignment: 2 (Halfword-aligned)
  ***** Mis-aligned memory read: Address: 0x080050CC, NumBytes: 60, Alignment: 2 (Halfword-aligned) -- Read from C cache (60 bytes @ 0x080050CC) - Data: 01 CF 4F F0 0A 0B 00 28 02 DA 40 42 2D 21 02 E0 ...  returns 0x3C (0000ms, 1655ms total)
T346C 016:161 JLINK_ReadMemEx(0x080050CC, 0x0002 Bytes, ..., AccessWidth = 33554432)Mis-aligned memory read: Address: 0x080050CC, NumBytes: 2, Alignment: 2 (Halfword-aligned)
  ***** Mis-aligned memory read: Address: 0x080050CC, NumBytes: 2, Alignment: 2 (Halfword-aligned) -- Read from C cache (2 bytes @ 0x080050CC) - Data: 01 CF  returns 0x02 (0001ms, 1656ms total)
T346C 016:162 JLINK_ReadMemEx(0x080050CE, 0x0002 Bytes, ..., AccessWidth = 33554432)Mis-aligned memory read: Address: 0x080050CE, NumBytes: 2, Alignment: 2 (Halfword-aligned)
  ***** Mis-aligned memory read: Address: 0x080050CE, NumBytes: 2, Alignment: 2 (Halfword-aligned) -- Read from C cache (2 bytes @ 0x080050CE) - Data: 4F F0  returns 0x02 (0000ms, 1656ms total)
T346C 016:162 JLINK_ReadMemEx(0x080050CE, 0x0002 Bytes, ..., AccessWidth = 33554432)Mis-aligned memory read: Address: 0x080050CE, NumBytes: 2, Alignment: 2 (Halfword-aligned)
  ***** Mis-aligned memory read: Address: 0x080050CE, NumBytes: 2, Alignment: 2 (Halfword-aligned) -- Read from C cache (2 bytes @ 0x080050CE) - Data: 4F F0  returns 0x02 (0000ms, 1656ms total)
T346C 016:162 JLINK_ReadMemEx(0x080050D0, 0x003C Bytes, ..., AccessWidth = 33554432)Mis-aligned memory read: Address: 0x080050D0, NumBytes: 60, Alignment: 2 (Halfword-aligned)
  ***** Mis-aligned memory read: Address: 0x080050D0, NumBytes: 60, Alignment: 2 (Halfword-aligned) -- Read from C cache (60 bytes @ 0x080050D0) - Data: 0A 0B 00 28 02 DA 40 42 2D 21 02 E0 21 05 04 D5 ...  returns 0x3C (0000ms, 1656ms total)
T346C 016:162 JLINK_ReadMemEx(0x080050D0, 0x0002 Bytes, ..., AccessWidth = 33554432)Mis-aligned memory read: Address: 0x080050D0, NumBytes: 2, Alignment: 2 (Halfword-aligned)
  ***** Mis-aligned memory read: Address: 0x080050D0, NumBytes: 2, Alignment: 2 (Halfword-aligned) -- Read from C cache (2 bytes @ 0x080050D0) - Data: 0A 0B  returns 0x02 (0000ms, 1656ms total)
T346C 016:162 JLINK_ReadMemEx(0x080050D2, 0x0002 Bytes, ..., AccessWidth = 33554432)Mis-aligned memory read: Address: 0x080050D2, NumBytes: 2, Alignment: 2 (Halfword-aligned)
  ***** Mis-aligned memory read: Address: 0x080050D2, NumBytes: 2, Alignment: 2 (Halfword-aligned) -- Read from C cache (2 bytes @ 0x080050D2) - Data: 00 28  returns 0x02 (0000ms, 1656ms total)
T346C 016:162 JLINK_ReadMemEx(0x080050D4, 0x003C Bytes, ..., AccessWidth = 33554432)Mis-aligned memory read: Address: 0x080050D4, NumBytes: 60, Alignment: 2 (Halfword-aligned)
  ***** Mis-aligned memory read: Address: 0x080050D4, NumBytes: 60, Alignment: 2 (Halfword-aligned) -- Read from C cache (60 bytes @ 0x080050D4) - Data: 02 DA 40 42 2D 21 02 E0 21 05 04 D5 2B 21 8D F8 ...  returns 0x3C (0000ms, 1656ms total)
T346C 016:162 JLINK_ReadMemEx(0x080050D4, 0x0002 Bytes, ..., AccessWidth = 33554432)Mis-aligned memory read: Address: 0x080050D4, NumBytes: 2, Alignment: 2 (Halfword-aligned)
  ***** Mis-aligned memory read: Address: 0x080050D4, NumBytes: 2, Alignment: 2 (Halfword-aligned) -- Read from C cache (2 bytes @ 0x080050D4) - Data: 02 DA  returns 0x02 (0000ms, 1656ms total)
T346C 016:162 JLINK_ReadMemEx(0x080050D4, 0x003C Bytes, ..., AccessWidth = 33554432)Mis-aligned memory read: Address: 0x080050D4, NumBytes: 60, Alignment: 2 (Halfword-aligned)
  ***** Mis-aligned memory read: Address: 0x080050D4, NumBytes: 60, Alignment: 2 (Halfword-aligned) -- Read from C cache (60 bytes @ 0x080050D4) - Data: 02 DA 40 42 2D 21 02 E0 21 05 04 D5 2B 21 8D F8 ...  returns 0x3C (0000ms, 1656ms total)
T346C 016:162 JLINK_ReadMemEx(0x080050D4, 0x0002 Bytes, ..., AccessWidth = 33554432)Mis-aligned memory read: Address: 0x080050D4, NumBytes: 2, Alignment: 2 (Halfword-aligned)
  ***** Mis-aligned memory read: Address: 0x080050D4, NumBytes: 2, Alignment: 2 (Halfword-aligned) -- Read from C cache (2 bytes @ 0x080050D4) - Data: 02 DA  returns 0x02 (0000ms, 1656ms total)
T346C 016:162 JLINK_ReadMemEx(0x080050D6, 0x0002 Bytes, ..., AccessWidth = 33554432)Mis-aligned memory read: Address: 0x080050D6, NumBytes: 2, Alignment: 2 (Halfword-aligned)
  ***** Mis-aligned memory read: Address: 0x080050D6, NumBytes: 2, Alignment: 2 (Halfword-aligned) -- Read from C cache (2 bytes @ 0x080050D6) - Data: 40 42  returns 0x02 (0000ms, 1656ms total)
T346C 016:162 JLINK_ReadMemEx(0x080050D6, 0x0002 Bytes, ..., AccessWidth = 33554432)Mis-aligned memory read: Address: 0x080050D6, NumBytes: 2, Alignment: 2 (Halfword-aligned)
  ***** Mis-aligned memory read: Address: 0x080050D6, NumBytes: 2, Alignment: 2 (Halfword-aligned) -- Read from C cache (2 bytes @ 0x080050D6) - Data: 40 42  returns 0x02 (0000ms, 1656ms total)
T346C 016:162 JLINK_ReadMemEx(0x080050D8, 0x003C Bytes, ..., AccessWidth = 33554432)Mis-aligned memory read: Address: 0x080050D8, NumBytes: 60, Alignment: 2 (Halfword-aligned)
  ***** Mis-aligned memory read: Address: 0x080050D8, NumBytes: 60, Alignment: 2 (Halfword-aligned) -- Read from C cache (60 bytes @ 0x080050D8) - Data: 2D 21 02 E0 21 05 04 D5 2B 21 8D F8 24 10 01 21 ...  returns 0x3C (0000ms, 1656ms total)
T346C 016:162 JLINK_ReadMemEx(0x080050D8, 0x0002 Bytes, ..., AccessWidth = 33554432)Mis-aligned memory read: Address: 0x080050D8, NumBytes: 2, Alignment: 2 (Halfword-aligned)
  ***** Mis-aligned memory read: Address: 0x080050D8, NumBytes: 2, Alignment: 2 (Halfword-aligned) -- Read from C cache (2 bytes @ 0x080050D8) - Data: 2D 21  returns 0x02 (0000ms, 1656ms total)
T346C 016:162 JLINK_ReadMemEx(0x080050D8, 0x003C Bytes, ..., AccessWidth = 33554432)Mis-aligned memory read: Address: 0x080050D8, NumBytes: 60, Alignment: 2 (Halfword-aligned)
  ***** Mis-aligned memory read: Address: 0x080050D8, NumBytes: 60, Alignment: 2 (Halfword-aligned) -- Read from C cache (60 bytes @ 0x080050D8) - Data: 2D 21 02 E0 21 05 04 D5 2B 21 8D F8 24 10 01 21 ...  returns 0x3C (0000ms, 1656ms total)
T346C 016:162 JLINK_ReadMemEx(0x080050D8, 0x0002 Bytes, ..., AccessWidth = 33554432)Mis-aligned memory read: Address: 0x080050D8, NumBytes: 2, Alignment: 2 (Halfword-aligned)
  ***** Mis-aligned memory read: Address: 0x080050D8, NumBytes: 2, Alignment: 2 (Halfword-aligned) -- Read from C cache (2 bytes @ 0x080050D8) - Data: 2D 21  returns 0x02 (0000ms, 1656ms total)
T346C 016:162 JLINK_ReadMemEx(0x080050DA, 0x0002 Bytes, ..., AccessWidth = 33554432)Mis-aligned memory read: Address: 0x080050DA, NumBytes: 2, Alignment: 2 (Halfword-aligned)
  ***** Mis-aligned memory read: Address: 0x080050DA, NumBytes: 2, Alignment: 2 (Halfword-aligned) -- Read from C cache (2 bytes @ 0x080050DA) - Data: 02 E0  returns 0x02 (0000ms, 1656ms total)
T346C 016:162 JLINK_ReadMemEx(0x080050DA, 0x0002 Bytes, ..., AccessWidth = 33554432)Mis-aligned memory read: Address: 0x080050DA, NumBytes: 2, Alignment: 2 (Halfword-aligned)
  ***** Mis-aligned memory read: Address: 0x080050DA, NumBytes: 2, Alignment: 2 (Halfword-aligned) -- Read from C cache (2 bytes @ 0x080050DA) - Data: 02 E0  returns 0x02 (0000ms, 1656ms total)
T346C 016:162 JLINK_ReadMemEx(0x080050DC, 0x003C Bytes, ..., AccessWidth = 33554432)Mis-aligned memory read: Address: 0x080050DC, NumBytes: 60, Alignment: 2 (Halfword-aligned)
  ***** Mis-aligned memory read: Address: 0x080050DC, NumBytes: 60, Alignment: 2 (Halfword-aligned) -- Read from C cache (60 bytes @ 0x080050DC) - Data: 21 05 04 D5 2B 21 8D F8 24 10 01 21 03 E0 E1 07 ...  returns 0x3C (0000ms, 1656ms total)
T346C 016:162 JLINK_ReadMemEx(0x080050DC, 0x0002 Bytes, ..., AccessWidth = 33554432)Mis-aligned memory read: Address: 0x080050DC, NumBytes: 2, Alignment: 2 (Halfword-aligned)
  ***** Mis-aligned memory read: Address: 0x080050DC, NumBytes: 2, Alignment: 2 (Halfword-aligned) -- Read from C cache (2 bytes @ 0x080050DC) - Data: 21 05  returns 0x02 (0000ms, 1656ms total)
T346C 016:162 JLINK_ReadMemEx(0x080050DC, 0x003C Bytes, ..., AccessWidth = 33554432)Mis-aligned memory read: Address: 0x080050DC, NumBytes: 60, Alignment: 2 (Halfword-aligned)
  ***** Mis-aligned memory read: Address: 0x080050DC, NumBytes: 60, Alignment: 2 (Halfword-aligned) -- Read from C cache (60 bytes @ 0x080050DC) - Data: 21 05 04 D5 2B 21 8D F8 24 10 01 21 03 E0 E1 07 ...  returns 0x3C (0000ms, 1656ms total)
T346C 016:162 JLINK_ReadMemEx(0x080050DC, 0x0002 Bytes, ..., AccessWidth = 33554432)Mis-aligned memory read: Address: 0x080050DC, NumBytes: 2, Alignment: 2 (Halfword-aligned)
  ***** Mis-aligned memory read: Address: 0x080050DC, NumBytes: 2, Alignment: 2 (Halfword-aligned) -- Read from C cache (2 bytes @ 0x080050DC) - Data: 21 05  returns 0x02 (0000ms, 1656ms total)
T346C 016:162 JLINK_ReadMemEx(0x080050DE, 0x0002 Bytes, ..., AccessWidth = 33554432)Mis-aligned memory read: Address: 0x080050DE, NumBytes: 2, Alignment: 2 (Halfword-aligned)
  ***** Mis-aligned memory read: Address: 0x080050DE, NumBytes: 2, Alignment: 2 (Halfword-aligned) -- Read from C cache (2 bytes @ 0x080050DE) - Data: 04 D5  returns 0x02 (0000ms, 1656ms total)
T346C 016:162 JLINK_ReadMemEx(0x080050DE, 0x0002 Bytes, ..., AccessWidth = 33554432)Mis-aligned memory read: Address: 0x080050DE, NumBytes: 2, Alignment: 2 (Halfword-aligned)
  ***** Mis-aligned memory read: Address: 0x080050DE, NumBytes: 2, Alignment: 2 (Halfword-aligned) -- Read from C cache (2 bytes @ 0x080050DE) - Data: 04 D5  returns 0x02 (0000ms, 1656ms total)
T346C 016:162 JLINK_ReadMemEx(0x080050E0, 0x003C Bytes, ..., AccessWidth = 33554432)Mis-aligned memory read: Address: 0x080050E0, NumBytes: 60, Alignment: 2 (Halfword-aligned)
  ***** Mis-aligned memory read: Address: 0x080050E0, NumBytes: 60, Alignment: 2 (Halfword-aligned) -- Read from C cache (60 bytes @ 0x080050E0) - Data: 2B 21 8D F8 24 10 01 21 03 E0 E1 07 05 D0 20 21 ...  returns 0x3C (0001ms, 1657ms total)
T346C 016:163 JLINK_ReadMemEx(0x080050E0, 0x0002 Bytes, ..., AccessWidth = 33554432)Mis-aligned memory read: Address: 0x080050E0, NumBytes: 2, Alignment: 2 (Halfword-aligned)
  ***** Mis-aligned memory read: Address: 0x080050E0, NumBytes: 2, Alignment: 2 (Halfword-aligned) -- Read from C cache (2 bytes @ 0x080050E0) - Data: 2B 21  returns 0x02 (0000ms, 1657ms total)
T346C 016:163 JLINK_ReadMemEx(0x080050E0, 0x003C Bytes, ..., AccessWidth = 33554432)Mis-aligned memory read: Address: 0x080050E0, NumBytes: 60, Alignment: 2 (Halfword-aligned)
  ***** Mis-aligned memory read: Address: 0x080050E0, NumBytes: 60, Alignment: 2 (Halfword-aligned) -- Read from C cache (60 bytes @ 0x080050E0) - Data: 2B 21 8D F8 24 10 01 21 03 E0 E1 07 05 D0 20 21 ...  returns 0x3C (0000ms, 1657ms total)
T346C 016:163 JLINK_ReadMemEx(0x080050E0, 0x0002 Bytes, ..., AccessWidth = 33554432)Mis-aligned memory read: Address: 0x080050E0, NumBytes: 2, Alignment: 2 (Halfword-aligned)
  ***** Mis-aligned memory read: Address: 0x080050E0, NumBytes: 2, Alignment: 2 (Halfword-aligned) -- Read from C cache (2 bytes @ 0x080050E0) - Data: 2B 21  returns 0x02 (0000ms, 1657ms total)
T346C 016:163 JLINK_ReadMemEx(0x080050E2, 0x0002 Bytes, ..., AccessWidth = 33554432)Mis-aligned memory read: Address: 0x080050E2, NumBytes: 2, Alignment: 2 (Halfword-aligned)
  ***** Mis-aligned memory read: Address: 0x080050E2, NumBytes: 2, Alignment: 2 (Halfword-aligned) -- Read from C cache (2 bytes @ 0x080050E2) - Data: 8D F8  returns 0x02 (0000ms, 1657ms total)
T346C 016:163 JLINK_ReadMemEx(0x080050E2, 0x0002 Bytes, ..., AccessWidth = 33554432)Mis-aligned memory read: Address: 0x080050E2, NumBytes: 2, Alignment: 2 (Halfword-aligned)
  ***** Mis-aligned memory read: Address: 0x080050E2, NumBytes: 2, Alignment: 2 (Halfword-aligned) -- Read from C cache (2 bytes @ 0x080050E2) - Data: 8D F8  returns 0x02 (0000ms, 1657ms total)
T346C 016:163 JLINK_ReadMemEx(0x080050E4, 0x003C Bytes, ..., AccessWidth = 33554432)Mis-aligned memory read: Address: 0x080050E4, NumBytes: 60, Alignment: 2 (Halfword-aligned)
  ***** Mis-aligned memory read: Address: 0x080050E4, NumBytes: 60, Alignment: 2 (Halfword-aligned) -- Read from C cache (60 bytes @ 0x080050E4) - Data: 24 10 01 21 03 E0 E1 07 05 D0 20 21 F7 E7 0D F1 ...  returns 0x3C (0000ms, 1657ms total)
T346C 016:163 JLINK_ReadMemEx(0x080050E4, 0x0002 Bytes, ..., AccessWidth = 33554432)Mis-aligned memory read: Address: 0x080050E4, NumBytes: 2, Alignment: 2 (Halfword-aligned)
  ***** Mis-aligned memory read: Address: 0x080050E4, NumBytes: 2, Alignment: 2 (Halfword-aligned) -- Read from C cache (2 bytes @ 0x080050E4) - Data: 24 10  returns 0x02 (0000ms, 1657ms total)
T346C 016:163 JLINK_ReadMemEx(0x080050E6, 0x0002 Bytes, ..., AccessWidth = 33554432)Mis-aligned memory read: Address: 0x080050E6, NumBytes: 2, Alignment: 2 (Halfword-aligned)
  ***** Mis-aligned memory read: Address: 0x080050E6, NumBytes: 2, Alignment: 2 (Halfword-aligned) -- Read from C cache (2 bytes @ 0x080050E6) - Data: 01 21  returns 0x02 (0000ms, 1657ms total)
T346C 016:163 JLINK_ReadMemEx(0x080050E8, 0x003C Bytes, ..., AccessWidth = 33554432)Mis-aligned memory read: Address: 0x080050E8, NumBytes: 60, Alignment: 2 (Halfword-aligned)
  ***** Mis-aligned memory read: Address: 0x080050E8, NumBytes: 60, Alignment: 2 (Halfword-aligned) -- Read from C cache (60 bytes @ 0x080050E8) - Data: 03 E0 E1 07 05 D0 20 21 F7 E7 0D F1 20 09 08 91 ...  returns 0x3C (0000ms, 1657ms total)
T346C 016:163 JLINK_ReadMemEx(0x080050E8, 0x0002 Bytes, ..., AccessWidth = 33554432)Mis-aligned memory read: Address: 0x080050E8, NumBytes: 2, Alignment: 2 (Halfword-aligned)
  ***** Mis-aligned memory read: Address: 0x080050E8, NumBytes: 2, Alignment: 2 (Halfword-aligned) -- Read from C cache (2 bytes @ 0x080050E8) - Data: 03 E0  returns 0x02 (0000ms, 1657ms total)
T346C 016:163 JLINK_ReadMemEx(0x080050E8, 0x003C Bytes, ..., AccessWidth = 33554432)Mis-aligned memory read: Address: 0x080050E8, NumBytes: 60, Alignment: 2 (Halfword-aligned)
  ***** Mis-aligned memory read: Address: 0x080050E8, NumBytes: 60, Alignment: 2 (Halfword-aligned) -- Read from C cache (60 bytes @ 0x080050E8) - Data: 03 E0 E1 07 05 D0 20 21 F7 E7 0D F1 20 09 08 91 ...  returns 0x3C (0000ms, 1657ms total)
